[2018/5/18 12:51:21]send-->FF 03 00 04 00 01 D0 15 

[2018/5/18 12:51:22]send-->FF 03 00 07 00 01 20 15 

[2018/5/18 12:51:23]send-->FF 03 00 0A 00 01 B1 D6 

[2018/5/18 12:51:24]send-->FF 03 00 0D 00 01 00 17 

[2018/5/18 12:51:26]send-->FF 03 00 04 00 01 D0 15 

[2018/5/18 12:51:27]send-->FF 03 00 07 00 01 20 15 

[2018/5/18 12:51:28]send-->FF 03 00 0A 00 01 B1 D6 

[2018/5/18 12:51:29]send-->FF 03 00 0D 00 01 00 17 

[2018/5/18 12:51:30]send-->FF 03 00 04 00 01 D0 15 

[2018/5/18 12:51:31]send-->FF 03 00 07 00 01 20 15 

[2018/5/18 12:51:32]send-->FF 03 00 0A 00 01 B1 D6 

[2018/5/18 12:51:33]send-->FF 03 00 0D 00 01 00 17 

[2018/5/18 12:51:34]send-->FF 03 00 04 00 01 D0 15 

[2018/5/18 12:51:35]send-->FF 03 00 07 00 01 20 15 

[2018/5/18 12:51:36]send-->FF 03 00 0A 00 01 B1 D6 

[2018/5/18 12:51:37]send-->FF 03 00 0D 00 01 00 17 

[2018/5/18 12:51:38]send-->FF 03 00 04 00 01 D0 15 

[2018/5/18 12:51:39]send-->FF 03 00 07 00 01 20 15 

[2018/5/18 12:51:40]send-->FF 03 00 0A 00 01 B1 D6 

[2018/5/18 12:51:41]send-->FF 03 00 0D 00 01 00 17 

[2018/5/18 12:51:42]send-->FF 03 00 04 00 01 D0 15 

[2018/5/18 12:51:43]send-->FF 03 00 07 00 01 20 15 

[2018/5/18 12:51:44]send-->FF 03 00 0A 00 01 B1 D6 

[2018/5/18 12:51:45]send-->FF 03 00 0D 00 01 00 17 

[2018/5/18 12:51:46]send-->FF 03 00 04 00 01 D0 15 

[2018/5/18 12:51:47]send-->FF 03 00 07 00 01 20 15 

[2018/5/18 12:51:48]send-->FF 03 00 0A 00 01 B1 D6 

[2018/5/18 12:51:49]send-->FF 03 00 0D 00 01 00 17 

[2018/5/18 12:51:50]send-->FF 03 00 04 00 01 D0 15 

[2018/5/18 12:51:51]send-->FF 03 00 07 00 01 20 15 

[2018/5/18 12:51:52]send-->FF 03 00 0A 00 01 B1 D6 

[2018/5/18 12:51:53]send-->FF 03 00 0D 00 01 00 17 

[2018/5/18 12:51:54]send-->FF 03 00 04 00 01 D0 15 

[2018/5/18 12:51:55]send-->FF 03 00 07 00 01 20 15 

[2018/5/18 12:51:56]send-->FF 03 00 0A 00 01 B1 D6 

[2018/5/18 12:51:58]send-->FF 03 00 0D 00 01 00 17 

[2018/5/18 12:51:59]send-->FF 03 00 04 00 01 D0 15 

[2018/5/18 12:52:00]send-->FF 03 00 07 00 01 20 15 

[2018/5/18 12:52:01]send-->FF 03 00 0A 00 01 B1 D6 

[2018/5/18 12:52:02]send-->FF 03 00 0D 00 01 00 17 

[2018/5/18 12:52:03]send-->FF 03 00 04 00 01 D0 15 

[2018/5/18 12:52:04]send-->FF 03 00 07 00 01 20 15 

[2018/5/18 12:52:05]send-->FF 03 00 0A 00 01 B1 D6 

[2018/5/18 12:52:06]send-->FF 03 00 0D 00 01 00 17 

[2018/5/18 12:52:07]send-->FF 03 00 04 00 01 D0 15 

[2018/5/18 12:52:08]send-->FF 03 00 07 00 01 20 15 

[2018/5/18 12:52:09]send-->FF 03 00 0A 00 01 B1 D6 

[2018/5/18 12:52:10]send-->FF 03 00 0D 00 01 00 17 

[2018/5/18 12:52:11]send-->FF 03 00 04 00 01 D0 15 

[2018/5/18 12:52:12]send-->FF 03 00 07 00 01 20 15 

[2018/5/18 12:52:13]send-->FF 03 00 0A 00 01 B1 D6 

[2018/5/18 12:52:14]send-->FF 03 00 0D 00 01 00 17 

[2018/5/18 12:52:15]send-->FF 03 00 04 00 01 D0 15 

[2018/5/18 12:52:16]send-->FF 03 00 07 00 01 20 15 

[2018/5/18 12:52:17]send-->FF 03 00 0A 00 01 B1 D6 

[2018/5/18 12:52:18]send-->FF 03 00 0D 00 01 00 17 

[2018/5/18 12:52:19]send-->FF 03 00 04 00 01 D0 15 

[2018/5/18 12:52:20]send-->FF 03 00 07 00 01 20 15 

[2018/5/18 12:52:21]send-->FF 03 00 0A 00 01 B1 D6 

[2018/5/18 12:52:22]send-->FF 03 00 0D 00 01 00 17 

[2018/5/18 12:52:23]send-->FF 03 00 04 00 01 D0 15 

[2018/5/18 12:52:24]send-->FF 03 00 07 00 01 20 15 

[2018/5/18 12:52:25]send-->FF 03 00 0A 00 01 B1 D6 

[2018/5/18 12:52:26]send-->FF 03 00 0D 00 01 00 17 

[2018/5/18 12:52:27]send-->FF 03 00 04 00 01 D0 15 

[2018/5/18 12:52:28]send-->FF 03 00 07 00 01 20 15 

[2018/5/18 12:52:29]send-->FF 03 00 0A 00 01 B1 D6 

[2018/5/18 12:52:30]send-->FF 03 00 0D 00 01 00 17 

[2018/5/18 12:52:31]send-->FF 03 00 04 00 01 D0 15 

[2018/5/18 12:52:32]send-->FF 03 00 07 00 01 20 15 

[2018/5/18 13:00:51]send-->FF 03 00 0A 00 01 B1 D6 

[2018/5/18 13:00:51]    o2--FF 03 02 FF FF 90 20 FF 03 02 00 00 91 90 

[2018/5/18 13:00:52]send-->FF 03 00 0D 00 01 00 17 

[2018/5/18 13:00:52]  temp--FF 03 02 00 FE 10 10 

[2018/5/18 13:00:53]send-->FF 03 00 04 00 01 D0 15 

[2018/5/18 13:00:53]   h2s--FF 03 02 00 00 91 90 

[2018/5/18 13:00:54]send-->FF 03 00 07 00 01 20 15 

[2018/5/18 13:00:55]    co--FF 03 02 FF FF 90 20 

[2018/5/18 13:00:55]send-->FF 03 00 0A 00 01 B1 D6 

[2018/5/18 13:00:55]    o2--FF 03 02 00 00 91 90 

[2018/5/18 13:00:56]send-->FF 03 00 0D 00 01 00 17 

[2018/5/18 13:00:56]  temp--FF 03 02 00 FD 50 11 

[2018/5/18 13:00:57]send-->FF 03 00 04 00 01 D0 15 

[2018/5/18 13:00:57]   h2s--FF 03 02 00 00 91 90 

[2018/5/18 13:00:58]send-->FF 03 00 07 00 01 20 15 

[2018/5/18 13:00:59]    co--FF 03 02 FF FF 90 20 

[2018/5/18 13:00:59]send-->FF 03 00 0A 00 01 B1 D6 

[2018/5/18 13:01:00]    o2--FF 03 02 00 00 91 90 

[2018/5/18 13:01:01]send-->FF 03 00 0D 00 01 00 17 

[2018/5/18 13:01:01]  temp--FF 03 02 00 FE 10 10 

[2018/5/18 13:01:02]send-->FF 03 00 04 00 01 D0 15 

[2018/5/18 13:01:02]   h2s--FF 03 02 00 00 91 90 

[2018/5/18 13:01:03]send-->FF 03 00 07 00 01 20 15 

[2018/5/18 13:01:03]    co--FF 03 02 FF FF 90 20 

[2018/5/18 13:01:04]send-->FF 03 00 0A 00 01 B1 D6 

[2018/5/18 13:01:04]    o2--FF 03 02 00 00 91 90 

[2018/5/18 13:01:05]send-->FF 03 00 0D 00 01 00 17 

[2018/5/18 13:01:05]  temp--FF 03 02 00 FE 10 10 

[2018/5/18 13:01:06]send-->FF 03 00 04 00 01 D0 15 

[2018/5/18 13:01:06]   h2s--FF 03 02 00 00 91 90 

[2018/5/18 13:01:07]send-->FF 03 00 07 00 01 20 15 

[2018/5/18 13:01:08]    co--FF 03 02 FF FF 90 20 

[2018/5/18 13:01:08]send-->FF 03 00 0A 00 01 B1 D6 

[2018/5/18 13:01:08]    o2--FF 03 02 00 00 91 90 

[2018/5/18 13:01:09]send-->FF 03 00 0D 00 01 00 17 

[2018/5/18 13:11:00]send-->FF 03 00 01 00 01 C0 14 

[2018/5/18 13:11:00]   ch4--FF 03 02 00 00 91 90 

[2018/5/18 13:11:01]send-->FF 03 00 04 00 01 D0 15 

[2018/5/18 13:11:01]   h2s--FF 03 02 00 00 91 90 

[2018/5/18 13:11:02]send-->FF 03 00 07 00 01 20 15 

[2018/5/18 13:11:03]    co--FF 03 02 FF FF 90 20 

[2018/5/18 13:11:03]send-->FF 03 00 0A 00 01 B1 D6 

[2018/5/18 13:11:03]    o2--FF 03 02 00 00 91 90 

[2018/5/18 13:11:04]send-->FF 03 00 0D 00 01 00 17 

[2018/5/18 13:11:04]  temp--FF 03 02 00 FD 50 11 

[2018/5/18 13:11:05]send-->FF 03 00 04 00 01 D0 15 

[2018/5/18 13:11:05]   h2s--FF 03 02 00 00 91 90 

[2018/5/18 13:11:06]send-->FF 03 00 07 00 01 20 15 

[2018/5/18 13:11:07]    co--FF 03 02 FF FF 90 20 

[2018/5/18 13:11:07]send-->FF 03 00 0A 00 01 B1 D6 

[2018/5/18 13:11:07]    o2--FF 03 02 00 00 91 90 

[2018/5/18 13:11:08]send-->FF 03 00 0D 00 01 00 17 

[2018/5/18 13:11:08]  temp--FF 03 02 00 FD 50 11 

[2018/5/18 13:11:09]send-->FF 03 00 04 00 01 D0 15 

[2018/5/18 13:11:09]   h2s--FF 03 02 00 00 91 90 

[2018/5/18 13:11:10]send-->FF 03 00 07 00 01 20 15 

[2018/5/18 13:11:11]    co--FF 03 02 FF FF 90 20 

[2018/5/18 13:11:11]send-->FF 03 00 0A 00 01 B1 D6 

[2018/5/18 13:11:11]    o2--FF 03 02 00 00 91 90 

[2018/5/18 13:11:12]send-->FF 03 00 0D 00 01 00 17 

[2018/5/18 13:11:12]  temp--FF 03 02 00 FC 91 D1 

[2018/5/18 13:11:13]send-->FF 03 00 04 00 01 D0 15 

[2018/5/18 13:11:14]   h2s--FF 03 02 00 00 91 90 

[2018/5/18 13:11:14]send-->FF 03 00 07 00 01 20 15 

[2018/5/18 13:11:15]    co--FF 03 02 FF FF 90 20 

[2018/5/18 13:11:16]send-->FF 03 00 0A 00 01 B1 D6 

[2018/5/18 13:11:16]    o2--FF 03 02 00 00 91 90 

[2018/5/18 13:11:17]send-->FF 03 00 0D 00 01 00 17 

[2018/5/18 13:11:17]  temp--FF 03 02 00 FD 50 11 

[2018/5/18 13:11:18]send-->FF 03 00 04 00 01 D0 15 

[2018/5/18 13:11:18]   h2s--FF 03 02 00 00 91 90 

[2018/5/18 13:11:19]send-->FF 03 00 07 00 01 20 15 

[2018/5/18 13:11:19]    co--FF 03 02 FF FF 90 20 

[2018/5/18 13:11:20]send-->FF 03 00 0A 00 01 B1 D6 

[2018/5/18 13:11:20]    o2--FF 03 02 00 00 91 90 

[2018/5/18 13:11:21]send-->FF 03 00 0D 00 01 00 17 

[2018/5/18 13:11:21]  temp--FF 03 02 00 FD 50 11 

[2018/5/18 13:11:22]send-->FF 03 00 04 00 01 D0 15 

[2018/5/18 13:11:22]   h2s--FF 03 02 00 00 91 90 

[2018/5/18 13:11:23]send-->FF 03 00 07 00 01 20 15 

[2018/5/18 13:11:24]    co--FF 03 02 FF FF 90 20 

[2018/5/18 13:11:24]send-->FF 03 00 0A 00 01 B1 D6 

[2018/5/18 13:11:24]    o2--FF 03 02 00 00 91 90 

[2018/5/18 13:11:25]send-->FF 03 00 0D 00 01 00 17 

[2018/5/18 13:11:25]  temp--FF 03 02 00 FD 50 11 

[2018/5/18 13:11:26]send-->FF 03 00 04 00 01 D0 15 

[2018/5/18 13:11:26]   h2s--FF 03 02 00 00 91 90 

[2018/5/18 13:11:27]send-->FF 03 00 07 00 01 20 15 

[2018/5/18 13:11:28]    co--FF 03 02 FF FF 90 20 

[2018/5/18 13:11:28]send-->FF 03 00 0A 00 01 B1 D6 

[2018/5/18 13:11:28]    o2--FF 03 02 00 00 91 90 

[2018/5/18 13:11:29]send-->FF 03 00 0D 00 01 00 17 

[2018/5/18 13:11:29]  temp--FF 03 02 00 FD 50 11 

[2018/5/18 13:11:30]send-->FF 03 00 04 00 01 D0 15 

[2018/5/18 13:11:30]   h2s--FF 03 02 00 00 91 90 

[2018/5/18 13:11:31]send-->FF 03 00 07 00 01 20 15 

[2018/5/18 13:11:32]    co--FF 03 02 FF FF 90 20 

[2018/5/18 13:11:32]send-->FF 03 00 0A 00 01 B1 D6 

[2018/5/18 13:11:32]    o2--FF 03 02 00 00 91 90 

[2018/5/18 13:11:33]send-->FF 03 00 0D 00 01 00 17 

[2018/5/18 13:11:33]  temp--FF 03 02 00 FD 50 11 

[2018/5/18 13:11:34]send-->FF 03 00 04 00 01 D0 15 

[2018/5/18 13:11:34]   h2s--FF 03 02 00 00 91 90 

[2018/5/18 13:11:35]send-->FF 03 00 07 00 01 20 15 

[2018/5/18 13:11:36]    co--FF 03 02 FF FF 90 20 

[2018/5/18 13:11:36]send-->FF 03 00 0A 00 01 B1 D6 

[2018/5/18 13:11:36]    o2--FF 03 02 00 00 91 90 

[2018/5/18 13:12:04]send-->FF 03 00 0D 00 01 00 17 

[2018/5/18 13:12:09]  temp--FF 03 02 00 FD 50 11 

[2018/5/18 13:13:01]send-->FF 10 00 11 00 01 02 00 01 2C B5 

[2018/5/18 13:13:01]send-->FF 03 00 04 00 01 D0 15 

[2018/5/18 13:13:13]back<--FF 10 00 11 00 02 04 13 

[2018/5/18 13:13:13]send-->FF 03 00 07 00 01 20 15 

[2018/5/18 13:13:18]  co<--FF 03 02 FF FF 90 20 

[2018/5/18 13:13:18]send-->FF 03 00 0A 00 01 B1 D6 

[2018/5/18 13:13:18]  o2<--FF 03 02 00 00 91 90 

[2018/5/18 13:13:19]send-->FF 03 00 0D 00 01 00 17 

[2018/5/18 13:13:19]temp<--FF 03 02 00 FC 91 D1 

[2018/5/18 13:13:20]send-->FF 03 00 04 00 01 D0 15 

[2018/5/18 13:13:21] h2s<--FF 03 02 00 00 91 90 

[2018/5/18 13:13:21]send-->FF 10 00 11 00 01 02 00 00 ED 75 

[2018/5/18 13:13:21]back<--FF 10 00 11 00 02 04 13 

[2018/5/18 13:13:21]send-->FF 03 00 07 00 01 20 15 

[2018/5/18 13:13:22]  co<--FF 03 02 FF FF 90 20 

[2018/5/18 13:13:23]send-->FF 03 00 0A 00 01 B1 D6 

[2018/5/18 13:13:23]  o2<--FF 03 02 00 00 91 90 

[2018/5/18 13:13:24]send-->FF 03 00 0D 00 01 00 17 

[2018/5/18 13:13:24]temp<--FF 03 02 00 FD 50 11 

[2018/5/18 13:13:25]send-->FF 03 00 04 00 01 D0 15 

[2018/5/18 13:13:25] h2s<--FF 03 02 00 00 91 90 

[2018/5/18 13:13:26]send-->FF 03 00 07 00 01 20 15 

[2018/5/18 13:13:27]  co<--FF 03 02 FF FF 90 20 

[2018/5/18 13:13:27]send-->FF 03 00 0A 00 01 B1 D6 

[2018/5/18 13:13:27]  o2<--FF 03 02 00 00 91 90 

[2018/5/18 13:13:28]send-->FF 03 00 0D 00 01 00 17 

[2018/5/18 13:13:28]temp<--FF 03 02 00 FD 50 11 

[2018/5/18 13:13:29]send-->FF 03 00 04 00 01 D0 15 

[2018/5/18 13:13:29] h2s<--FF 03 02 00 00 91 90 

[2018/5/18 13:13:30]send-->FF 03 00 07 00 01 20 15 

[2018/5/18 13:13:31]  co<--FF 03 02 FF FF 90 20 

[2018/5/18 13:13:31]send-->FF 03 00 0A 00 01 B1 D6 

[2018/5/18 13:13:31]  o2<--FF 03 02 00 00 91 90 

[2018/5/18 13:13:32]send-->FF 03 00 0D 00 01 00 17 

[2018/5/18 13:13:32]temp<--FF 03 02 00 FD 50 11 

[2018/5/18 13:13:33]send-->FF 03 00 04 00 01 D0 15 

[2018/5/18 13:13:33] h2s<--FF 03 02 00 00 91 90 

[2018/5/18 13:13:34]send-->FF 03 00 07 00 01 20 15 

[2018/5/18 13:13:35]  co<--FF 03 02 FF FF 90 20 

[2018/5/18 13:13:35]send-->FF 03 00 0A 00 01 B1 D6 

[2018/5/18 13:13:35]  o2<--FF 03 02 00 00 91 90 

[2018/5/18 13:13:36]send-->FF 03 00 0D 00 01 00 17 

[2018/5/18 13:13:36]temp<--FF 03 02 00 FD 50 11 

[2018/5/18 13:13:37]send-->FF 03 00 04 00 01 D0 15 

[2018/5/18 13:13:37] h2s<--FF 03 02 00 00 91 90 

[2018/5/18 13:13:38]send-->FF 03 00 07 00 01 20 15 

[2018/5/18 13:13:39]  co<--FF 03 02 FF FF 90 20 

[2018/5/18 13:13:39]send-->FF 03 00 0A 00 01 B1 D6 

[2018/5/18 13:13:39]  o2<--FF 03 02 00 00 91 90 

[2018/5/18 13:13:40]send-->FF 03 00 0D 00 01 00 17 

[2018/5/18 13:13:40]temp<--FF 03 02 00 FD 50 11 

[2018/5/18 13:13:41]send-->FF 03 00 04 00 01 D0 15 

[2018/5/18 13:13:41] h2s<--FF 03 02 00 00 91 90 

[2018/5/18 13:13:42]send-->FF 03 00 07 00 01 20 15 

[2018/5/18 13:16:51]send-->FF 03 00 01 00 01 C0 14 

[2018/5/18 13:16:51] ch4<--FF 03 02 00 00 91 90 

[2018/5/18 13:16:52]send-->FF 03 00 04 00 01 D0 15 

[2018/5/18 13:16:52] h2s<--FF 03 02 00 00 91 90 

[2018/5/18 13:16:53]send-->FF 03 00 07 00 01 20 15 

[2018/5/18 13:16:54]  co<--FF 03 02 FF FF 90 20 

[2018/5/18 13:16:54]send-->FF 03 00 0A 00 01 B1 D6 

[2018/5/18 13:16:54]  o2<--FF 03 02 00 00 91 90 

[2018/5/18 13:16:55]send-->FF 03 00 0D 00 01 00 17 

[2018/5/18 13:16:55]temp<--FF 03 02 01 00 90 00 

[2018/5/18 13:16:56]send-->FF 03 00 04 00 01 D0 15 

[2018/5/18 13:16:56] h2s<--FF 03 02 00 00 91 90 

[2018/5/18 13:16:57]send-->FF 03 00 07 00 01 20 15 

[2018/5/18 13:16:58]  co<--FF 03 02 FF FF 90 20 

[2018/5/18 13:16:58]send-->FF 03 00 0A 00 01 B1 D6 

[2018/5/18 13:16:58]  o2<--FF 03 02 00 00 91 90 

[2018/5/18 13:16:59]send-->FF 03 00 0D 00 01 00 17 

[2018/5/18 13:16:59]temp<--FF 03 02 01 00 90 00 

[2018/5/18 13:17:00]send-->FF 03 00 04 00 01 D0 15 

[2018/5/18 13:17:00] h2s<--FF 03 02 00 00 91 90 

[2018/5/18 13:17:01]send-->FF 03 00 07 00 01 20 15 

[2018/5/18 13:17:02]  co<--FF 03 02 FF FF 90 20 

[2018/5/18 13:17:02]send-->FF 03 00 0A 00 01 B1 D6 

[2018/5/18 13:17:02]  o2<--FF 03 02 00 00 91 90 

[2018/5/18 13:17:03]send-->FF 03 00 0D 00 01 00 17 

[2018/5/18 13:17:03]temp<--FF 03 02 01 00 90 00 

[2018/5/18 13:17:04]send-->FF 03 00 04 00 01 D0 15 

[2018/5/18 13:17:04] h2s<--FF 03 02 00 00 91 90 

[2018/5/18 13:17:05]send-->FF 03 00 07 00 01 20 15 

[2018/5/18 13:17:06]  co<--FF 03 02 FF FF 90 20 

[2018/5/18 13:17:06]send-->FF 03 00 0A 00 01 B1 D6 

[2018/5/18 13:17:06]  o2<--FF 03 02 00 00 91 90 

[2018/5/18 13:17:07]send-->FF 03 00 0D 00 01 00 17 

[2018/5/18 13:17:07]temp<--FF 03 02 01 00 90 00 

[2018/5/18 13:17:08]send-->FF 03 00 04 00 01 D0 15 

[2018/5/18 13:17:08] h2s<--FF 03 02 00 00 91 90 

[2018/5/18 13:17:09]send-->FF 03 00 07 00 01 20 15 

[2018/5/18 13:17:10]  co<--FF 03 02 FF FF 90 20 

[2018/5/18 13:17:10]send-->FF 03 00 0A 00 01 B1 D6 

[2018/5/18 13:17:11]  o2<--FF 03 02 00 00 91 90 

[2018/5/18 13:17:11]send-->FF 03 00 0D 00 01 00 17 

[2018/5/18 13:17:12]temp<--FF 03 02 01 00 90 00 

[2018/5/18 13:17:13]send-->FF 03 00 04 00 01 D0 15 

[2018/5/18 13:17:13] h2s<--FF 03 02 00 00 91 90 

[2018/5/18 13:17:14]send-->FF 03 00 07 00 01 20 15 

[2018/5/18 13:17:14]  co<--FF 03 02 FF FF 90 20 

[2018/5/18 13:17:15]send-->FF 03 00 0A 00 01 B1 D6 

[2018/5/18 13:17:15]  o2<--FF 03 02 00 00 91 90 

[2018/5/18 13:17:16]send-->FF 03 00 0D 00 01 00 17 

[2018/5/18 13:17:16]temp<--FF 03 02 01 00 90 00 

[2018/5/18 13:17:17]send-->FF 03 00 04 00 01 D0 15 

[2018/5/18 13:17:17] h2s<--FF 03 02 00 00 91 90 

[2018/5/18 13:17:18]send-->FF 03 00 07 00 01 20 15 

[2018/5/18 13:17:19]  co<--FF 03 02 FF FF 90 20 

[2018/5/18 13:17:19]send-->FF 03 00 0A 00 01 B1 D6 

[2018/5/18 13:17:19]  o2<--FF 03 02 00 00 91 90 

[2018/5/18 13:17:20]send-->FF 03 00 0D 00 01 00 17 

[2018/5/18 13:17:20]temp<--FF 03 02 01 00 90 00 

[2018/5/18 13:17:21]send-->FF 03 00 04 00 01 D0 15 

[2018/5/18 13:17:21] h2s<--FF 03 02 00 00 91 90 

[2018/5/18 13:17:22]send-->FF 03 00 07 00 01 20 15 

[2018/5/18 13:17:23]  co<--FF 03 02 FF FF 90 20 

[2018/5/18 13:17:23]send-->FF 03 00 0A 00 01 B1 D6 

[2018/5/18 13:17:23]  o2<--FF 03 02 00 00 91 90 

[2018/5/18 13:17:24]send-->FF 03 00 0D 00 01 00 17 

[2018/5/18 13:17:24]temp<--FF 03 02 01 00 90 00 

[2018/5/18 13:17:25]send-->FF 03 00 04 00 01 D0 15 

[2018/5/18 13:17:25] h2s<--FF 03 02 00 00 91 90 

[2018/5/18 13:17:26]send-->FF 03 00 07 00 01 20 15 

[2018/5/18 13:17:27]  co<--FF 03 02 FF FF 90 20 

[2018/5/18 13:17:27]send-->FF 03 00 0A 00 01 B1 D6 

[2018/5/18 13:17:27]  o2<--FF 03 02 00 00 91 90 

[2018/5/18 13:17:28]send-->FF 03 00 0D 00 01 00 17 

[2018/5/18 13:17:28]temp<--FF 03 02 01 00 90 00 

[2018/5/18 13:17:29]send-->FF 03 00 04 00 01 D0 15 

[2018/5/18 13:17:29] h2s<--FF 03 02 00 00 91 90 

[2018/5/18 13:17:30]send-->FF 03 00 07 00 01 20 15 

[2018/5/18 13:17:31]  co<--FF 03 02 FF FF 90 20 

[2018/5/18 13:17:31]send-->FF 03 00 0A 00 01 B1 D6 

[2018/5/18 13:17:31]  o2<--FF 03 02 00 00 91 90 

[2018/5/18 13:17:32]send-->FF 03 00 0D 00 01 00 17 

[2018/5/18 13:17:32]temp<--FF 03 02 01 01 51 C0 

[2018/5/18 13:17:33]send-->FF 03 00 04 00 01 D0 15 

[2018/5/18 13:17:33] h2s<--FF 03 02 00 00 91 90 

[2018/5/18 13:17:34]send-->FF 03 00 07 00 01 20 15 

[2018/5/18 13:17:35]  co<--FF 03 02 FF FF 90 20 

[2018/5/18 13:17:35]send-->FF 03 00 0A 00 01 B1 D6 

[2018/5/18 13:17:35]  o2<--FF 03 02 00 00 91 90 

[2018/5/18 13:17:36]send-->FF 03 00 0D 00 01 00 17 

[2018/5/18 13:17:36]temp<--FF 03 02 01 01 51 C0 

[2018/5/18 13:17:37]send-->FF 03 00 04 00 01 D0 15 

[2018/5/18 13:17:37] h2s<--FF 03 02 00 00 91 90 

[2018/5/18 13:17:38]send-->FF 03 00 07 00 01 20 15 

[2018/5/18 13:17:39]  co<--FF 03 02 FF FF 90 20 

[2018/5/18 13:17:39]send-->FF 03 00 0A 00 01 B1 D6 

[2018/5/18 13:17:39]  o2<--FF 03 02 00 00 91 90 

[2018/5/18 13:17:40]send-->FF 03 00 0D 00 01 00 17 

[2018/5/18 13:17:40]temp<--FF 03 02 01 01 51 C0 

[2018/5/18 13:17:41]send-->FF 03 00 04 00 01 D0 15 

[2018/5/18 13:17:42] h2s<--FF 03 02 00 00 91 90 

[2018/5/18 13:17:42]send-->FF 03 00 07 00 01 20 15 

[2018/5/18 13:17:43]  co<--FF 03 02 FF FF 90 20 

[2018/5/18 13:17:43]send-->FF 03 00 0A 00 01 B1 D6 

[2018/5/18 13:17:44]  o2<--FF 03 02 00 00 91 90 

[2018/5/18 13:17:44]send-->FF 03 00 0D 00 01 00 17 

[2018/5/18 13:17:45]temp<--FF 03 02 01 01 51 C0 

[2018/5/18 13:17:46]send-->FF 03 00 04 00 01 D0 15 

[2018/5/18 13:17:46] h2s<--FF 03 02 00 00 91 90 

[2018/5/18 13:17:47]send-->FF 03 00 07 00 01 20 15 

[2018/5/18 13:17:47]  co<--FF 03 02 FF FF 90 20 

[2018/5/18 13:17:48]send-->FF 03 00 0A 00 01 B1 D6 

[2018/5/18 13:17:48]  o2<--FF 03 02 00 00 91 90 

[2018/5/18 13:17:49]send-->FF 03 00 0D 00 01 00 17 

[2018/5/18 13:17:49]temp<--FF 03 02 01 01 51 C0 

[2018/5/18 13:17:50]send-->FF 03 00 04 00 01 D0 15 

[2018/5/18 13:17:50] h2s<--FF 03 02 00 00 91 90 

[2018/5/18 13:17:51]send-->FF 03 00 07 00 01 20 15 

[2018/5/18 13:17:52]  co<--FF 03 02 FF FF 90 20 

[2018/5/18 13:17:52]send-->FF 03 00 0A 00 01 B1 D6 

[2018/5/18 13:17:52]  o2<--FF 03 02 00 00 91 90 

[2018/5/18 13:17:53]send-->FF 03 00 0D 00 01 00 17 

[2018/5/18 13:17:53]temp<--FF 03 02 01 01 51 C0 

[2018/5/18 13:17:54]send-->FF 03 00 04 00 01 D0 15 

[2018/5/18 13:17:54] h2s<--FF 03 02 00 00 91 90 

[2018/5/18 13:17:55]send-->FF 03 00 07 00 01 20 15 

[2018/5/18 13:17:56]  co<--FF 03 02 FF FF 90 20 

[2018/5/18 13:17:56]send-->FF 03 00 0A 00 01 B1 D6 

[2018/5/18 13:17:56]  o2<--FF 03 02 00 00 91 90 

[2018/5/18 13:17:57]send-->FF 03 00 0D 00 01 00 17 

[2018/5/18 13:17:57]temp<--FF 03 02 01 01 51 C0 

[2018/5/18 13:17:58]send-->FF 03 00 04 00 01 D0 15 

[2018/5/18 13:17:58] h2s<--FF 03 02 00 00 91 90 

[2018/5/18 13:17:59]send-->FF 03 00 07 00 01 20 15 

[2018/5/18 13:18:00]  co<--FF 03 02 FF FF 90 20 

[2018/5/18 13:18:00]send-->FF 03 00 0A 00 01 B1 D6 

[2018/5/18 13:18:00]  o2<--FF 03 02 00 00 91 90 

[2018/5/18 13:18:01]send-->FF 03 00 0D 00 01 00 17 

[2018/5/18 13:18:01]temp<--FF 03 02 01 01 51 C0 

[2018/5/18 13:18:02]send-->FF 03 00 04 00 01 D0 15 

[2018/5/18 13:18:02] h2s<--FF 03 02 00 00 91 90 

[2018/5/18 13:18:03]send-->FF 03 00 07 00 01 20 15 

[2018/5/18 13:18:04]  co<--FF 03 02 FF FF 90 20 

[2018/5/18 13:18:04]send-->FF 03 00 0A 00 01 B1 D6 

[2018/5/18 13:18:04]  o2<--FF 03 02 00 00 91 90 

[2018/5/18 13:18:05]send-->FF 03 00 0D 00 01 00 17 

[2018/5/18 13:18:05]temp<--FF 03 02 01 01 51 C0 

[2018/5/18 13:18:06]send-->FF 03 00 04 00 01 D0 15 

[2018/5/18 13:18:06] h2s<--FF 03 02 00 00 91 90 

[2018/5/18 13:18:07]send-->FF 03 00 07 00 01 20 15 

[2018/5/18 13:18:08]  co<--FF 03 02 FF FF 90 20 

[2018/5/18 13:18:08]send-->FF 03 00 0A 00 01 B1 D6 

[2018/5/18 13:18:08]  o2<--FF 03 02 00 00 91 90 

[2018/5/18 13:18:09]send-->FF 03 00 0D 00 01 00 17 

[2018/5/18 13:18:09]temp<--FF 03 02 01 01 51 C0 

[2018/5/18 13:18:10]send-->FF 03 00 04 00 01 D0 15 

[2018/5/18 13:18:10] h2s<--FF 03 02 00 00 91 90 

[2018/5/18 13:18:11]send-->FF 03 00 07 00 01 20 15 

[2018/5/18 13:20:16]send-->FF 03 00 01 00 01 C0 14 

[2018/5/18 13:20:16] ch4<--FF 03 02 00 00 91 90 

[2018/5/18 13:20:17]send-->FF 03 00 04 00 01 D0 15 

[2018/5/18 13:20:17] h2s<--FF 03 02 00 00 91 90 

[2018/5/18 13:20:18]send-->FF 03 00 07 00 01 20 15 

[2018/5/18 13:20:19]  co<--FF 03 02 FF FF 90 20 

[2018/5/18 13:20:19]send-->FF 03 00 0A 00 01 B1 D6 

[2018/5/18 13:20:19]  o2<--FF 03 02 00 00 91 90 

[2018/5/18 13:20:20]send-->FF 03 00 0D 00 01 00 17 

[2018/5/18 13:20:20]temp<--FF 03 02 01 00 90 00 

[2018/5/18 13:20:21]send-->FF 03 00 04 00 01 D0 15 

[2018/5/18 13:20:21] h2s<--FF 03 02 00 00 91 90 

[2018/5/18 13:20:22]send-->FF 03 00 07 00 01 20 15 

[2018/5/18 13:20:23]  co<--FF 03 02 FF FF 90 20 

[2018/5/18 13:20:23]send-->FF 03 00 0A 00 01 B1 D6 

[2018/5/18 13:20:23]  o2<--FF 03 02 00 00 91 90 

[2018/5/18 13:20:24]send-->FF 03 00 0D 00 01 00 17 

[2018/5/18 13:20:24]temp<--FF 03 02 01 00 90 00 

[2018/5/18 13:20:25]send-->FF 03 00 04 00 01 D0 15 

[2018/5/18 13:20:25] h2s<--FF 03 02 00 00 91 90 

[2018/5/18 13:20:26]send-->FF 03 00 07 00 01 20 15 

[2018/5/18 13:20:27]  co<--FF 03 02 FF FF 90 20 

[2018/5/18 13:20:27]send-->FF 03 00 0A 00 01 B1 D6 

[2018/5/18 13:20:27]  o2<--FF 03 02 00 00 91 90 

[2018/5/18 13:20:28]send-->FF 03 00 0D 00 01 00 17 

[2018/5/18 13:20:28]temp<--FF 03 02 01 01 51 C0 

[2018/5/18 13:20:29]send-->FF 03 00 04 00 01 D0 15 

[2018/5/18 13:20:29] h2s<--FF 03 02 00 00 91 90 

[2018/5/18 13:20:30]send-->FF 03 00 07 00 01 20 15 

[2018/5/18 13:20:31]  co<--FF 03 02 FF FF 90 20 

[2018/5/18 13:20:31]send-->FF 03 00 0A 00 01 B1 D6 

[2018/5/18 13:20:31]  o2<--FF 03 02 00 00 91 90 

[2018/5/18 13:20:32]send-->FF 03 00 0D 00 01 00 17 

[2018/5/18 13:20:32]temp<--FF 03 02 01 00 90 00 

[2018/5/18 13:20:33]send-->FF 03 00 04 00 01 D0 15 

[2018/5/18 13:20:33] h2s<--FF 03 02 00 00 91 90 

[2018/5/18 13:20:34]send-->FF 03 00 07 00 01 20 15 

[2018/5/18 13:20:35]  co<--FF 03 02 FF FF 90 20 

[2018/5/18 13:20:35]send-->FF 03 00 0A 00 01 B1 D6 

[2018/5/18 13:20:35]  o2<--FF 03 02 00 00 91 90 

[2018/5/18 13:20:36]send-->FF 03 00 0D 00 01 00 17 

[2018/5/18 13:20:36]temp<--FF 03 02 01 01 51 C0 

[2018/5/18 13:20:37]send-->FF 03 00 04 00 01 D0 15 

[2018/5/18 13:20:38] h2s<--FF 03 02 00 00 91 90 

[2018/5/18 13:20:38]send-->FF 03 00 07 00 01 20 15 

[2018/5/18 13:20:39]  co<--FF 03 02 FF FF 90 20 

[2018/5/18 13:20:39]send-->FF 03 00 0A 00 01 B1 D6 

[2018/5/18 13:20:40]  o2<--FF 03 02 00 00 91 90 

[2018/5/18 13:20:40]send-->FF 03 00 0D 00 01 00 17 

[2018/5/18 13:20:41]temp<--FF 03 02 01 00 90 00 

[2018/5/18 13:20:41]send-->FF 03 00 04 00 01 D0 15 

[2018/5/18 13:20:42] h2s<--FF 03 02 00 00 91 90 

[2018/5/18 13:20:43]send-->FF 03 00 07 00 01 20 15 

[2018/5/18 13:20:43]  co<--FF 03 02 FF FF 90 20 

[2018/5/18 13:20:44]send-->FF 03 00 0A 00 01 B1 D6 

[2018/5/18 13:20:44]  o2<--FF 03 02 00 00 91 90 

[2018/5/18 13:20:45]send-->FF 03 00 0D 00 01 00 17 

[2018/5/18 13:20:45]temp<--FF 03 02 01 25 51 DB 

[2018/5/18 13:20:45]send-->FF 10 00 11 00 01 02 00 01 2C B5 

[2018/5/18 13:20:45]back<--FF 10 00 11 00 02 04 13 

[2018/5/18 13:20:46]send-->FF 03 00 04 00 01 D0 15 

[2018/5/18 13:20:46] h2s<--FF 03 02 00 00 91 90 

[2018/5/18 13:20:47]send-->FF 03 00 07 00 01 20 15 

[2018/5/18 13:20:48]  co<--FF 03 02 FF FF 90 20 

[2018/5/18 13:20:48]send-->FF 03 00 0A 00 01 B1 D6 

[2018/5/18 13:20:48]  o2<--FF 03 02 00 00 91 90 

[2018/5/18 13:20:49]send-->FF 03 00 0D 00 01 00 17 

[2018/5/18 13:20:49]temp<--FF 03 02 01 2F D1 DC 

[2018/5/18 13:20:50]send-->FF 03 00 04 00 01 D0 15 

[2018/5/18 13:20:50] h2s<--FF 03 02 00 00 91 90 

[2018/5/18 13:20:51]send-->FF 03 00 07 00 01 20 15 

[2018/5/18 13:20:52]  co<--FF 03 02 FF FF 90 20 

[2018/5/18 13:20:52]send-->FF 03 00 0A 00 01 B1 D6 

[2018/5/18 13:20:52]  o2<--FF 03 02 00 00 91 90 

[2018/5/18 13:20:53]send-->FF 03 00 0D 00 01 00 17 

[2018/5/18 13:20:53]temp<--FF 03 02 01 27 D0 1A 

[2018/5/18 13:20:53]temp<--

[2018/5/18 13:20:54]send-->FF 03 00 04 00 01 D0 15 

[2018/5/18 13:20:54] h2s<--FF 03 02 00 00 91 90 

[2018/5/18 13:20:55]send-->FF 03 00 07 00 01 20 15 

[2018/5/18 13:20:56]  co<--FF 03 02 FF FF 90 20 

[2018/5/18 13:20:56]send-->FF 03 00 0A 00 01 B1 D6 

[2018/5/18 13:20:56]  o2<--FF 03 02 00 00 91 90 

[2018/5/18 13:20:57]send-->FF 03 00 0D 00 01 00 17 

[2018/5/18 13:20:57]temp<--FF 03 02 01 22 10 19 

[2018/5/18 13:20:57]send-->FF 10 00 11 00 01 02 00 00 ED 75 

[2018/5/18 13:20:57]back<--FF 10 00 11 00 02 04 13 

[2018/5/18 13:20:58]send-->FF 03 00 04 00 01 D0 15 

[2018/5/18 13:20:58] h2s<--FF 03 02 00 00 91 90 

[2018/5/18 13:20:59]send-->FF 03 00 07 00 01 20 15 

[2018/5/18 13:21:00]  co<--FF 03 02 FF FF 90 20 

[2018/5/18 13:21:00]send-->FF 03 00 0A 00 01 B1 D6 

[2018/5/18 13:21:00]  o2<--FF 03 02 00 00 91 90 

[2018/5/18 13:21:01]send-->FF 03 00 0D 00 01 00 17 

[2018/5/18 13:21:01]temp<--FF 03 02 01 1F D1 C8 

[2018/5/18 13:21:02]send-->FF 03 00 04 00 01 D0 15 

[2018/5/18 13:21:02] h2s<--FF 03 02 00 00 91 90 

[2018/5/18 13:21:03]send-->FF 03 00 07 00 01 20 15 

[2018/5/18 13:21:04]  co<--FF 03 02 FF FF 90 20 

[2018/5/18 13:21:04]send-->FF 03 00 0A 00 01 B1 D6 

[2018/5/18 13:21:04]  o2<--FF 03 02 00 00 91 90 

[2018/5/18 13:21:05]send-->FF 03 00 0D 00 01 00 17 

[2018/5/18 13:21:05]temp<--FF 03 02 01 1D 50 09 

[2018/5/18 13:21:06]send-->FF 03 00 04 00 01 D0 15 

[2018/5/18 13:21:06] h2s<--FF 03 02 00 00 91 90 

[2018/5/18 13:21:07]send-->FF 03 00 07 00 01 20 15 

[2018/5/18 13:21:08]  co<--FF 03 02 FF FF 90 20 

[2018/5/18 13:21:08]send-->FF 03 00 0A 00 01 B1 D6 

[2018/5/18 13:21:08]  o2<--FF 03 02 00 00 91 90 

[2018/5/18 13:21:09]send-->FF 03 00 0D 00 01 00 17 

[2018/5/18 13:21:09]temp<--FF 03 02 01 1B D0 0B 

[2018/5/18 13:21:10]send-->FF 03 00 04 00 01 D0 15 

[2018/5/18 13:21:10] h2s<--FF 03 02 00 00 91 90 

[2018/5/18 13:21:11]send-->FF 03 00 07 00 01 20 15 

[2018/5/18 13:21:12]  co<--FF 03 02 FF FF 90 20 

[2018/5/18 13:21:12]send-->FF 03 00 0A 00 01 B1 D6 

[2018/5/18 13:21:12]  o2<--FF 03 02 00 00 91 90 

[2018/5/18 13:21:13]send-->FF 03 00 0D 00 01 00 17 

[2018/5/18 13:21:14]temp<--FF 03 02 01 19 51 CA 

[2018/5/18 13:21:14]send-->FF 03 00 04 00 01 D0 15 

[2018/5/18 13:21:15] h2s<--FF 03 02 00 00 91 90 

[2018/5/18 13:21:16]send-->FF 03 00 07 00 01 20 15 

[2018/5/18 13:21:16]  co<--FF 03 02 FF FF 90 20 

[2018/5/18 13:21:17]send-->FF 03 00 0A 00 01 B1 D6 

[2018/5/18 13:21:17]  o2<--FF 03 02 00 00 91 90 

[2018/5/18 13:21:18]send-->FF 03 00 0D 00 01 00 17 

[2018/5/18 13:21:18]temp<--FF 03 02 01 17 D0 0E 

[2018/5/18 13:21:19]send-->FF 03 00 04 00 01 D0 15 

[2018/5/18 13:21:19] h2s<--FF 03 02 00 00 91 90 

[2018/5/18 13:21:20]send-->FF 03 00 07 00 01 20 15 

[2018/5/18 13:21:21]  co<--FF 03 02 FF FF 90 20 

[2018/5/18 13:21:21]send-->FF 03 00 0A 00 01 B1 D6 

[2018/5/18 13:21:21]  o2<--FF 03 02 00 00 91 90 

[2018/5/18 13:21:22]send-->FF 03 00 0D 00 01 00 17 

[2018/5/18 13:21:22]temp<--FF 03 02 01 15 51 CF 

[2018/5/18 13:21:23]send-->FF 03 00 04 00 01 D0 15 

[2018/5/18 13:21:23] h2s<--FF 03 02 00 00 91 90 

[2018/5/18 13:21:24]send-->FF 03 00 07 00 01 20 15 

[2018/5/18 13:21:25]  co<--FF 03 02 FF FF 90 20 

[2018/5/18 13:21:25]send-->FF 03 00 0A 00 01 B1 D6 

[2018/5/18 13:21:25]  o2<--FF 03 02 00 00 91 90 

[2018/5/18 13:21:26]send-->FF 03 00 0D 00 01 00 17 

[2018/5/18 13:21:26]temp<--FF 03 02 01 13 D1 CD 

[2018/5/18 13:21:27]send-->FF 03 00 04 00 01 D0 15 

[2018/5/18 13:21:27] h2s<--FF 03 02 00 00 91 90 

[2018/5/18 13:21:28]send-->FF 03 00 07 00 01 20 15 

[2018/5/18 13:21:29]  co<--FF 03 02 FF FF 90 20 

[2018/5/18 13:21:29]send-->FF 03 00 0A 00 01 B1 D6 

[2018/5/18 13:21:29]  o2<--FF 03 02 00 00 91 90 

[2018/5/18 13:21:30]send-->FF 03 00 0D 00 01 00 17 

[2018/5/18 13:21:30]temp<--FF 03 02 01 12 10 0D 

[2018/5/18 13:21:31]send-->FF 03 00 04 00 01 D0 15 

[2018/5/18 13:21:31] h2s<--FF 03 02 00 00 91 90 

[2018/5/18 13:21:32]send-->FF 03 00 07 00 01 20 15 

[2018/5/18 13:21:33]  co<--FF 03 02 FF FF 90 20 

[2018/5/18 13:21:33]send-->FF 03 00 0A 00 01 B1 D6 

[2018/5/18 13:21:33]  o2<--FF 03 02 00 00 91 90 

[2018/5/18 13:21:34]send-->FF 03 00 0D 00 01 00 17 

[2018/5/18 13:21:34]temp<--FF 03 02 01 11 50 0C 

[2018/5/18 13:21:35]send-->FF 03 00 04 00 01 D0 15 

[2018/5/18 13:21:35] h2s<--FF 03 02 00 00 91 90 

[2018/5/18 13:21:36]send-->FF 03 00 07 00 01 20 15 

[2018/5/18 13:21:37]  co<--FF 03 02 FF FF 90 20 

[2018/5/18 13:21:37]send-->FF 03 00 0A 00 01 B1 D6 

[2018/5/18 13:21:37]  o2<--FF 03 02 00 00 91 90 

[2018/5/18 13:21:38]send-->FF 03 00 0D 00 01 00 17 

[2018/5/18 13:21:38]temp<--FF 03 02 01 11 50 0C 

[2018/5/18 13:21:39]send-->FF 03 00 04 00 01 D0 15 

[2018/5/18 13:21:39] h2s<--FF 03 02 00 00 91 90 

[2018/5/18 13:21:40]send-->FF 03 00 07 00 01 20 15 

[2018/5/18 13:21:41]  co<--FF 03 02 FF FF 90 20 

[2018/5/18 13:21:41]send-->FF 03 00 0A 00 01 B1 D6 

[2018/5/18 13:21:41]  o2<--FF 03 02 00 00 91 90 

[2018/5/18 13:21:42]send-->FF 03 00 0D 00 01 00 17 

[2018/5/18 13:21:42]temp<--FF 03 02 01 10 91 CC 

[2018/5/18 13:21:43]send-->FF 03 00 04 00 01 D0 15 

[2018/5/18 13:21:43] h2s<--FF 03 02 00 00 91 90 

[2018/5/18 13:21:44]send-->FF 03 00 07 00 01 20 15 

[2018/5/18 13:21:45]  co<--FF 03 02 FF FF 90 20 

[2018/5/18 13:21:45]send-->FF 03 00 0A 00 01 B1 D6 

[2018/5/18 13:21:45]  o2<--FF 03 02 00 00 91 90 

[2018/5/18 13:21:46]send-->FF 03 00 0D 00 01 00 17 

[2018/5/18 13:21:46]temp<--FF 03 02 01 10 91 CC 

[2018/5/18 13:21:47]send-->FF 03 00 04 00 01 D0 15 

[2018/5/18 13:21:48] h2s<--FF 03 02 00 00 91 90 

[2018/5/18 13:21:48]send-->FF 03 00 07 00 01 20 15 

[2018/5/18 13:21:49]  co<--FF 03 02 FF FF 90 20 

[2018/5/18 13:21:49]send-->FF 03 00 0A 00 01 B1 D6 

[2018/5/18 13:21:50]  o2<--FF 03 02 00 00 91 90 

[2018/5/18 13:21:50]send-->FF 03 00 0D 00 01 00 17 

[2018/5/18 13:21:51]temp<--FF 03 02 01 0F D0 04 

[2018/5/18 13:21:51]send-->FF 03 00 04 00 01 D0 15 

[2018/5/18 13:21:52] h2s<--FF 03 02 00 00 91 90 

[2018/5/18 13:21:53]send-->FF 03 00 07 00 01 20 15 

[2018/5/18 13:21:53]  co<--FF 03 02 FF FF 90 20 

[2018/5/18 13:21:54]send-->FF 03 00 0A 00 01 B1 D6 

[2018/5/18 13:21:54]  o2<--FF 03 02 00 00 91 90 

[2018/5/18 13:21:55]send-->FF 03 00 0D 00 01 00 17 

[2018/5/18 13:21:55]temp<--FF 03 02 01 0F D0 04 

[2018/5/18 13:21:56]send-->FF 03 00 04 00 01 D0 15 

[2018/5/18 13:21:56] h2s<--FF 03 02 00 00 91 90 

[2018/5/18 13:21:57]send-->FF 03 00 07 00 01 20 15 

[2018/5/18 13:21:58]  co<--FF 03 02 FF FF 90 20 

[2018/5/18 13:21:58]send-->FF 03 00 0A 00 01 B1 D6 

[2018/5/18 13:21:58]  o2<--FF 03 02 00 00 91 90 

[2018/5/18 13:21:59]send-->FF 03 00 0D 00 01 00 17 

[2018/5/18 13:21:59]temp<--FF 03 02 01 0E 11 C4 

[2018/5/18 13:22:00]send-->FF 03 00 04 00 01 D0 15 

[2018/5/18 13:22:00] h2s<--FF 03 02 00 00 91 90 

[2018/5/18 13:22:01]send-->FF 03 00 07 00 01 20 15 

[2018/5/18 13:22:02]  co<--FF 03 02 FF FF 90 20 

[2018/5/18 13:22:02]send-->FF 03 00 0A 00 01 B1 D6 

[2018/5/18 13:22:02]  o2<--FF 03 02 00 00 91 90 

[2018/5/18 13:22:03]send-->FF 03 00 0D 00 01 00 17 

[2018/5/18 13:22:03]temp<--FF 03 02 01 0D 51 C5 

[2018/5/18 13:22:04]send-->FF 03 00 04 00 01 D0 15 

[2018/5/18 13:22:04] h2s<--FF 03 02 00 00 91 90 

[2018/5/18 13:22:05]send-->FF 03 00 07 00 01 20 15 

[2018/5/18 13:22:06]  co<--FF 03 02 FF FF 90 20 

[2018/5/18 13:22:06]send-->FF 03 00 0A 00 01 B1 D6 

[2018/5/18 13:22:06]  o2<--FF 03 02 00 00 91 90 

[2018/5/18 13:22:07]send-->FF 03 00 0D 00 01 00 17 

[2018/5/18 13:22:07]temp<--FF 03 02 01 0C 90 05 

[2018/5/18 13:22:08]send-->FF 03 00 04 00 01 D0 15 

[2018/5/18 13:22:08] h2s<--FF 03 02 00 00 91 90 

[2018/5/18 13:22:09]send-->FF 03 00 07 00 01 20 15 

[2018/5/18 13:22:10]  co<--FF 03 02 FF FF 90 20 

[2018/5/18 13:22:10]send-->FF 03 00 0A 00 01 B1 D6 

[2018/5/18 13:22:10]  o2<--FF 03 02 00 00 91 90 

[2018/5/18 13:22:11]send-->FF 03 00 0D 00 01 00 17 

[2018/5/18 13:22:11]temp<--FF 03 02 01 0C 90 05 

[2018/5/18 13:22:12]send-->FF 03 00 04 00 01 D0 15 

[2018/5/18 13:22:12] h2s<--FF 03 02 00 00 91 90 

[2018/5/18 13:22:13]send-->FF 03 00 07 00 01 20 15 

[2018/5/18 13:22:14]  co<--FF 03 02 FF FF 90 20 

[2018/5/18 13:22:14]send-->FF 03 00 0A 00 01 B1 D6 

[2018/5/18 13:22:14]  o2<--FF 03 02 00 00 91 90 

[2018/5/18 13:22:15]send-->FF 03 00 0D 00 01 00 17 

[2018/5/18 13:22:15]temp<--FF 03 02 01 0B D1 C7 

[2018/5/18 13:22:16]send-->FF 03 00 04 00 01 D0 15 

[2018/5/18 13:22:16] h2s<--FF 03 02 00 00 91 90 

[2018/5/18 13:22:17]send-->FF 03 00 07 00 01 20 15 

[2018/5/18 13:22:18]  co<--FF 03 02 FF FF 90 20 

[2018/5/18 13:22:18]send-->FF 03 00 0A 00 01 B1 D6 

[2018/5/18 13:22:18]  o2<--FF 03 02 00 00 91 90 

[2018/5/18 13:22:19]send-->FF 03 00 0D 00 01 00 17 

[2018/5/18 13:22:19]temp<--FF 03 02 01 0A 10 07 

[2018/5/18 13:22:20]send-->FF 03 00 04 00 01 D0 15 

[2018/5/18 13:22:20] h2s<--FF 03 02 00 00 91 90 

[2018/5/18 13:22:21]send-->FF 03 00 07 00 01 20 15 

[2018/5/18 13:22:22]  co<--FF 03 02 FF FF 90 20 

[2018/5/18 13:22:22]send-->FF 03 00 0A 00 01 B1 D6 

[2018/5/18 13:22:22]  o2<--FF 03 02 00 00 91 90 

[2018/5/18 13:22:23]send-->FF 03 00 0D 00 01 00 17 

[2018/5/18 13:22:23]temp<--FF 03 02 01 0A 10 07 

[2018/5/18 13:22:24]send-->FF 03 00 04 00 01 D0 15 

[2018/5/18 13:22:24] h2s<--FF 03 02 00 00 91 90 

[2018/5/18 13:22:25]send-->FF 03 00 07 00 01 20 15 

[2018/5/18 13:22:26]  co<--FF 03 02 FF FF 90 20 

[2018/5/18 13:22:26]send-->FF 03 00 0A 00 01 B1 D6 

[2018/5/18 13:22:26]  o2<--FF 03 02 00 00 91 90 

[2018/5/18 13:22:27]send-->FF 03 00 0D 00 01 00 17 

[2018/5/18 13:22:27]temp<--FF 03 02 01 09 50 06 

[2018/5/18 13:22:28]send-->FF 03 00 04 00 01 D0 15 

[2018/5/18 13:22:29] h2s<--FF 03 02 00 00 91 90 

[2018/5/18 13:22:29]send-->FF 03 00 07 00 01 20 15 

[2018/5/18 13:22:30]  co<--FF 03 02 FF FF 90 20 

[2018/5/18 13:22:30]send-->FF 03 00 0A 00 01 B1 D6 

[2018/5/18 13:22:31]  o2<--FF 03 02 00 00 91 90 

[2018/5/18 13:22:31]send-->FF 03 00 0D 00 01 00 17 

[2018/5/18 13:22:32]temp<--FF 03 02 01 09 50 06 

[2018/5/18 13:22:33]send-->FF 03 00 04 00 01 D0 15 

[2018/5/18 13:22:33] h2s<--FF 03 02 00 00 91 90 

[2018/5/18 13:22:34]send-->FF 03 00 07 00 01 20 15 

[2018/5/18 13:22:34]  co<--FF 03 02 FF FF 90 20 

[2018/5/18 13:22:35]send-->FF 03 00 0A 00 01 B1 D6 

[2018/5/18 13:22:35]  o2<--FF 03 02 00 00 91 90 

[2018/5/18 13:22:36]send-->FF 03 00 0D 00 01 00 17 

[2018/5/18 13:22:36]temp<--FF 03 02 01 09 50 06 

[2018/5/18 13:22:37]send-->FF 03 00 04 00 01 D0 15 

[2018/5/18 13:22:37] h2s<--FF 03 02 00 00 91 90 

[2018/5/18 13:22:38]send-->FF 03 00 07 00 01 20 15 

[2018/5/18 13:22:39]  co<--FF 03 02 FF FF 90 20 

[2018/5/18 13:22:39]send-->FF 03 00 0A 00 01 B1 D6 

[2018/5/18 13:22:39]  o2<--FF 03 02 00 00 91 90 

[2018/5/18 13:22:40]send-->FF 03 00 0D 00 01 00 17 

[2018/5/18 13:22:40]temp<--FF 03 02 01 08 91 C6 

[2018/5/18 13:22:41]send-->FF 03 00 04 00 01 D0 15 

[2018/5/18 13:22:41] h2s<--FF 03 02 00 00 91 90 

[2018/5/18 13:22:42]send-->FF 03 00 07 00 01 20 15 

[2018/5/18 13:22:43]  co<--FF 03 02 FF FF 90 20 

[2018/5/18 13:22:43]send-->FF 03 00 0A 00 01 B1 D6 

[2018/5/18 13:22:43]  o2<--FF 03 02 00 00 91 90 

[2018/5/18 13:22:44]send-->FF 03 00 0D 00 01 00 17 

[2018/5/18 13:22:44]temp<--FF 03 02 01 08 91 C6 

[2018/5/18 13:22:45]send-->FF 03 00 04 00 01 D0 15 

[2018/5/18 13:22:45] h2s<--FF 03 02 00 00 91 90 

[2018/5/18 13:22:46]send-->FF 03 00 07 00 01 20 15 

[2018/5/18 13:22:47]  co<--FF 03 02 FF FF 90 20 

[2018/5/18 13:22:47]send-->FF 03 00 0A 00 01 B1 D6 

[2018/5/18 13:22:47]  o2<--FF 03 02 00 00 91 90 

[2018/5/18 13:22:48]send-->FF 03 00 0D 00 01 00 17 

[2018/5/18 13:22:48]temp<--FF 03 02 01 07 D1 C2 

[2018/5/18 13:22:49]send-->FF 03 00 04 00 01 D0 15 

[2018/5/18 13:22:49] h2s<--FF 03 02 00 00 91 90 

[2018/5/18 13:22:50]send-->FF 03 00 07 00 01 20 15 

[2018/5/18 13:22:51]  co<--FF 03 02 FF FF 90 20 

[2018/5/18 13:22:51]send-->FF 03 00 0A 00 01 B1 D6 

[2018/5/18 13:22:51]  o2<--FF 03 02 00 00 91 90 

[2018/5/18 13:22:52]send-->FF 03 00 0D 00 01 00 17 

[2018/5/18 13:22:52]temp<--FF 03 02 01 07 D1 C2 

[2018/5/18 13:22:53]send-->FF 03 00 04 00 01 D0 15 

[2018/5/18 13:22:53] h2s<--FF 03 02 00 00 91 90 

[2018/5/18 13:22:54]send-->FF 03 00 07 00 01 20 15 

[2018/5/18 13:22:55]  co<--FF 03 02 FF FF 90 20 

[2018/5/18 13:22:55]send-->FF 03 00 0A 00 01 B1 D6 

[2018/5/18 13:22:55]  o2<--FF 03 02 00 00 91 90 

[2018/5/18 13:22:56]send-->FF 03 00 0D 00 01 00 17 

[2018/5/18 13:22:56]temp<--FF 03 02 01 07 D1 C2 

[2018/5/18 13:22:57]send-->FF 03 00 04 00 01 D0 15 

[2018/5/18 13:22:57] h2s<--FF 03 02 00 00 91 90 

[2018/5/18 13:22:58]send-->FF 03 00 07 00 01 20 15 

[2018/5/18 13:22:59]  co<--FF 03 02 FF FF 90 20 

[2018/5/18 13:22:59]send-->FF 03 00 0A 00 01 B1 D6 

[2018/5/18 13:22:59]  o2<--FF 03 02 00 00 91 90 

[2018/5/18 13:23:00]send-->FF 03 00 0D 00 01 00 17 

[2018/5/18 13:23:00]temp<--FF 03 02 01 07 D1 C2 

[2018/5/18 13:23:01]send-->FF 03 00 04 00 01 D0 15 

[2018/5/18 13:23:01] h2s<--FF 03 02 00 00 91 90 

[2018/5/18 13:23:02]send-->FF 03 00 07 00 01 20 15 

[2018/5/18 13:23:03]  co<--FF 03 02 FF FF 90 20 

[2018/5/18 13:23:03]send-->FF 03 00 0A 00 01 B1 D6 

[2018/5/18 13:23:03]  o2<--FF 03 02 00 00 91 90 

[2018/5/18 13:23:04]send-->FF 03 00 0D 00 01 00 17 

[2018/5/18 13:23:04]temp<--FF 03 02 01 07 D1 C2 

[2018/5/18 13:23:05]send-->FF 03 00 04 00 01 D0 15 

[2018/5/18 13:23:05] h2s<--FF 03 02 00 00 91 90 

[2018/5/18 13:23:06]send-->FF 03 00 07 00 01 20 15 

[2018/5/18 13:23:07]  co<--FF 03 02 FF FF 90 20 

[2018/5/18 13:23:07]send-->FF 03 00 0A 00 01 B1 D6 

[2018/5/18 13:23:08]  o2<--FF 03 02 00 00 91 90 

[2018/5/18 13:23:08]send-->FF 03 00 0D 00 01 00 17 

[2018/5/18 13:23:09]temp<--FF 03 02 01 06 10 02 

[2018/5/18 13:23:09]send-->FF 03 00 04 00 01 D0 15 

[2018/5/18 13:23:10] h2s<--FF 03 02 00 00 91 90 

[2018/5/18 13:23:10]send-->FF 03 00 07 00 01 20 15 

[2018/5/18 13:23:11]  co<--FF 03 02 FF FF 90 20 

[2018/5/18 13:23:11]send-->FF 03 00 0A 00 01 B1 D6 

[2018/5/18 13:23:12]  o2<--FF 03 02 00 00 91 90 

[2018/5/18 13:23:13]send-->FF 03 00 0D 00 01 00 17 

[2018/5/18 13:23:13]temp<--FF 03 02 01 06 10 02 

[2018/5/18 13:23:14]send-->FF 03 00 04 00 01 D0 15 

[2018/5/18 13:23:14] h2s<--FF 03 02 00 00 91 90 

[2018/5/18 13:23:15]send-->FF 03 00 07 00 01 20 15 

[2018/5/18 13:23:15]  co<--FF 03 02 FF FF 90 20 

[2018/5/18 13:23:16]send-->FF 03 00 0A 00 01 B1 D6 

[2018/5/18 13:23:16]  o2<--FF 03 02 00 00 91 90 

[2018/5/18 13:23:17]send-->FF 03 00 0D 00 01 00 17 

[2018/5/18 13:23:17]temp<--FF 03 02 01 06 10 02 

[2018/5/18 13:23:18]send-->FF 03 00 04 00 01 D0 15 

[2018/5/18 13:23:18] h2s<--FF 03 02 00 00 91 90 

[2018/5/18 13:23:19]send-->FF 03 00 07 00 01 20 15 

[2018/5/18 13:23:20]  co<--FF 03 02 FF FF 90 20 

[2018/5/18 13:23:20]send-->FF 03 00 0A 00 01 B1 D6 

[2018/5/18 13:23:20]  o2<--FF 03 02 00 00 91 90 

[2018/5/18 13:23:21]send-->FF 03 00 0D 00 01 00 17 

[2018/5/18 13:23:21]temp<--FF 03 02 01 06 10 02 

[2018/5/18 13:23:22]send-->FF 03 00 04 00 01 D0 15 

[2018/5/18 13:23:22] h2s<--FF 03 02 00 00 91 90 

[2018/5/18 13:23:23]send-->FF 03 00 07 00 01 20 15 

[2018/5/18 13:23:24]  co<--FF 03 02 FF FF 90 20 

[2018/5/18 13:23:24]send-->FF 03 00 0A 00 01 B1 D6 

[2018/5/18 13:23:24]  o2<--FF 03 02 00 00 91 90 

[2018/5/18 13:23:25]send-->FF 03 00 0D 00 01 00 17 

[2018/5/18 13:23:25]temp<--FF 03 02 01 05 50 03 

[2018/5/18 13:23:26]send-->FF 03 00 04 00 01 D0 15 

[2018/5/18 13:23:26] h2s<--FF 03 02 00 00 91 90 

[2018/5/18 13:23:27]send-->FF 03 00 07 00 01 20 15 

[2018/5/18 13:23:28]  co<--FF 03 02 FF FF 90 20 

[2018/5/18 13:23:28]send-->FF 03 00 0A 00 01 B1 D6 

[2018/5/18 13:23:28]  o2<--FF 03 02 00 00 91 90 

[2018/5/18 13:23:29]send-->FF 03 00 0D 00 01 00 17 

[2018/5/18 13:23:29]temp<--FF 03 02 01 05 50 03 

[2018/5/18 13:23:30]send-->FF 03 00 04 00 01 D0 15 

[2018/5/18 13:23:30] h2s<--FF 03 02 00 00 91 90 

[2018/5/18 13:23:31]send-->FF 03 00 07 00 01 20 15 

[2018/5/18 13:23:32]  co<--FF 03 02 FF FF 90 20 

[2018/5/18 13:23:32]send-->FF 03 00 0A 00 01 B1 D6 

[2018/5/18 13:23:32]  o2<--FF 03 02 00 00 91 90 

[2018/5/18 13:23:33]send-->FF 03 00 0D 00 01 00 17 

[2018/5/18 13:23:33]temp<--FF 03 02 01 04 91 C3 

[2018/5/18 13:23:34]send-->FF 03 00 04 00 01 D0 15 

[2018/5/18 13:23:34] h2s<--FF 03 02 00 00 91 90 

[2018/5/18 13:23:35]send-->FF 03 00 07 00 01 20 15 

[2018/5/18 13:23:36]  co<--FF 03 02 FF FF 90 20 

[2018/5/18 13:23:36]send-->FF 03 00 0A 00 01 B1 D6 

[2018/5/18 13:23:36]  o2<--FF 03 02 00 00 91 90 

[2018/5/18 13:23:37]send-->FF 03 00 0D 00 01 00 17 

[2018/5/18 13:23:37]temp<--FF 03 02 01 04 91 C3 

[2018/5/18 13:23:38]send-->FF 03 00 04 00 01 D0 15 

[2018/5/18 13:23:38] h2s<--FF 03 02 00 00 91 90 

[2018/5/18 13:23:39]send-->FF 03 00 07 00 01 20 15 

[2018/5/18 13:23:40]  co<--FF 03 02 FF FF 90 20 

[2018/5/18 13:23:40]send-->FF 03 00 0A 00 01 B1 D6 

[2018/5/18 13:23:40]  o2<--FF 03 02 00 00 91 90 

[2018/5/18 13:23:41]send-->FF 03 00 0D 00 01 00 17 

[2018/5/18 13:23:41]temp<--FF 03 02 01 04 91 C3 

[2018/5/18 13:23:42]send-->FF 03 00 04 00 01 D0 15 

[2018/5/18 13:23:42] h2s<--FF 03 02 00 00 91 90 

[2018/5/18 13:23:43]send-->FF 03 00 07 00 01 20 15 

[2018/5/18 13:23:44]  co<--FF 03 02 FF FF 90 20 

[2018/5/18 13:23:44]send-->FF 03 00 0A 00 01 B1 D6 

[2018/5/18 13:23:45]  o2<--FF 03 02 00 00 91 90 

[2018/5/18 13:23:45]send-->FF 03 00 0D 00 01 00 17 

[2018/5/18 13:23:45]temp<--FF 03 02 01 03 D0 01 

[2018/5/18 13:23:46]send-->FF 03 00 04 00 01 D0 15 

[2018/5/18 13:23:47] h2s<--FF 03 02 00 00 91 90 

[2018/5/18 13:23:47]send-->FF 03 00 07 00 01 20 15 

[2018/5/18 13:23:48]  co<--FF 03 02 FF FF 90 20 

[2018/5/18 13:23:48]send-->FF 03 00 0A 00 01 B1 D6 

[2018/5/18 13:23:49]  o2<--FF 03 02 00 00 91 90 

[2018/5/18 13:23:50]send-->FF 03 00 0D 00 01 00 17 

[2018/5/18 13:23:50]temp<--FF 03 02 01 03 D0 01 

[2018/5/18 13:23:51]send-->FF 03 00 04 00 01 D0 15 

[2018/5/18 13:23:51] h2s<--FF 03 02 00 00 91 90 

[2018/5/18 13:23:52]send-->FF 03 00 07 00 01 20 15 

[2018/5/18 13:23:52]  co<--FF 03 02 FF FF 90 20 

[2018/5/18 13:23:53]send-->FF 03 00 0A 00 01 B1 D6 

[2018/5/18 13:23:53]  o2<--FF 03 02 00 00 91 90 

[2018/5/18 13:23:54]send-->FF 03 00 0D 00 01 00 17 

[2018/5/18 13:23:54]temp<--FF 03 02 01 03 D0 01 

[2018/5/18 13:23:55]send-->FF 03 00 04 00 01 D0 15 

[2018/5/18 13:23:55] h2s<--FF 03 02 00 00 91 90 

[2018/5/18 13:23:56]send-->FF 03 00 07 00 01 20 15 

[2018/5/18 13:23:57]  co<--FF 03 02 FF FF 90 20 

[2018/5/18 13:23:57]send-->FF 03 00 0A 00 01 B1 D6 

[2018/5/18 13:23:57]  o2<--FF 03 02 00 00 91 90 

[2018/5/18 13:23:58]send-->FF 03 00 0D 00 01 00 17 

[2018/5/18 13:23:58]temp<--FF 03 02 01 03 D0 01 

[2018/5/18 13:23:59]send-->FF 03 00 04 00 01 D0 15 

[2018/5/18 13:23:59] h2s<--FF 03 02 00 00 91 90 

[2018/5/18 13:24:00]send-->FF 03 00 07 00 01 20 15 

[2018/5/18 13:24:01]  co<--FF 03 02 FF FF 90 20 

[2018/5/18 13:24:01]send-->FF 03 00 0A 00 01 B1 D6 

[2018/5/18 13:24:01]  o2<--FF 03 02 00 00 91 90 

[2018/5/18 13:24:02]send-->FF 03 00 0D 00 01 00 17 

[2018/5/18 13:24:02]temp<--FF 03 02 01 03 D0 01 

[2018/5/18 13:24:03]send-->FF 03 00 04 00 01 D0 15 

[2018/5/18 13:24:03] h2s<--FF 03 02 00 00 91 90 

[2018/5/18 13:24:04]send-->FF 03 00 07 00 01 20 15 

[2018/5/18 13:24:05]  co<--FF 03 02 FF FF 90 20 

[2018/5/18 13:24:05]send-->FF 03 00 0A 00 01 B1 D6 

[2018/5/18 13:24:05]  o2<--FF 03 02 00 00 91 90 

[2018/5/18 13:24:06]send-->FF 03 00 0D 00 01 00 17 

[2018/5/18 13:24:06]temp<--FF 03 02 01 03 D0 01 

[2018/5/18 13:24:07]send-->FF 03 00 04 00 01 D0 15 

[2018/5/18 13:24:07] h2s<--FF 03 02 00 00 91 90 

[2018/5/18 13:24:08]send-->FF 03 00 07 00 01 20 15 

[2018/5/18 13:24:09]  co<--FF 03 02 FF FF 90 20 

[2018/5/18 13:24:09]send-->FF 03 00 0A 00 01 B1 D6 

[2018/5/18 13:24:09]  o2<--FF 03 02 00 00 91 90 

[2018/5/18 13:24:10]send-->FF 03 00 0D 00 01 00 17 

[2018/5/18 13:24:10]temp<--FF 03 02 01 02 11 C1 

[2018/5/18 13:24:11]send-->FF 03 00 04 00 01 D0 15 

[2018/5/18 13:24:11] h2s<--FF 03 02 00 00 91 90 

[2018/5/18 13:24:12]send-->FF 03 00 07 00 01 20 15 

[2018/5/18 13:24:13]  co<--FF 03 02 FF FF 90 20 

[2018/5/18 13:24:13]send-->FF 03 00 0A 00 01 B1 D6 

[2018/5/18 13:24:13]  o2<--FF 03 02 00 00 91 90 

[2018/5/18 13:24:14]send-->FF 03 00 0D 00 01 00 17 

[2018/5/18 13:24:14]temp<--FF 03 02 01 02 11 C1 

[2018/5/18 13:24:15]send-->FF 03 00 04 00 01 D0 15 

[2018/5/18 13:24:15] h2s<--FF 03 02 00 00 91 90 

[2018/5/18 13:24:16]send-->FF 03 00 07 00 01 20 15 

[2018/5/18 13:24:17]  co<--FF 03 02 FF FF 90 20 

[2018/5/18 13:24:17]send-->FF 03 00 0A 00 01 B1 D6 

[2018/5/18 13:24:17]  o2<--FF 03 02 00 00 91 90 

[2018/5/18 13:24:18]send-->FF 03 00 0D 00 01 00 17 

[2018/5/18 13:24:18]temp<--FF 03 02 01 01 51 C0 

[2018/5/18 13:24:19]send-->FF 03 00 04 00 01 D0 15 

[2018/5/18 13:24:19] h2s<--FF 03 02 00 00 91 90 

[2018/5/18 13:24:20]send-->FF 03 00 07 00 01 20 15 

[2018/5/18 13:24:21]  co<--FF 03 02 FF FF 90 20 

[2018/5/18 13:24:21]send-->FF 03 00 0A 00 01 B1 D6 

[2018/5/18 13:24:22]  o2<--FF 03 02 00 00 91 90 

[2018/5/18 13:24:22]send-->FF 03 00 0D 00 01 00 17 

[2018/5/18 13:24:23]temp<--FF 03 02 01 01 51 C0 

[2018/5/18 13:24:23]send-->FF 03 00 04 00 01 D0 15 

[2018/5/18 13:24:24] h2s<--FF 03 02 00 00 91 90 

[2018/5/18 13:24:25]send-->FF 03 00 07 00 01 20 15 

[2018/5/18 13:24:25]  co<--FF 03 02 FF FF 90 20 

[2018/5/18 13:24:26]send-->FF 03 00 0A 00 01 B1 D6 

[2018/5/18 13:24:26]  o2<--FF 03 02 00 00 91 90 

[2018/5/18 13:24:27]send-->FF 03 00 0D 00 01 00 17 

[2018/5/18 13:24:27]temp<--FF 03 02 01 01 51 C0 

[2018/5/18 13:24:28]send-->FF 03 00 04 00 01 D0 15 

[2018/5/18 13:24:28] h2s<--FF 03 02 00 00 91 90 

[2018/5/18 13:24:29]send-->FF 03 00 07 00 01 20 15 

[2018/5/18 13:24:30]  co<--FF 03 02 FF FF 90 20 

[2018/5/18 13:24:30]send-->FF 03 00 0A 00 01 B1 D6 

[2018/5/18 13:24:30]  o2<--FF 03 02 00 00 91 90 

[2018/5/18 13:24:31]send-->FF 03 00 0D 00 01 00 17 

[2018/5/18 13:24:31]temp<--FF 03 02 01 01 51 C0 

[2018/5/18 13:24:32]send-->FF 03 00 04 00 01 D0 15 

[2018/5/18 13:24:32] h2s<--FF 03 02 00 00 91 90 

[2018/5/18 13:24:33]send-->FF 03 00 07 00 01 20 15 

[2018/5/18 13:24:34]  co<--FF 03 02 FF FF 90 20 

[2018/5/18 13:24:34]send-->FF 03 00 0A 00 01 B1 D6 

[2018/5/18 13:24:34]  o2<--FF 03 02 00 00 91 90 

[2018/5/18 13:24:35]send-->FF 03 00 0D 00 01 00 17 

[2018/5/18 13:24:35]temp<--FF 03 02 01 00 90 00 

[2018/5/18 13:24:36]send-->FF 03 00 04 00 01 D0 15 

[2018/5/18 13:24:36] h2s<--FF 03 02 00 00 91 90 

[2018/5/18 13:24:37]send-->FF 03 00 07 00 01 20 15 

[2018/5/18 13:24:38]  co<--FF 03 02 FF FF 90 20 

[2018/5/18 13:24:38]send-->FF 03 00 0A 00 01 B1 D6 

[2018/5/18 13:24:38]  o2<--FF 03 02 00 00 91 90 

[2018/5/18 13:24:39]send-->FF 03 00 0D 00 01 00 17 

[2018/5/18 13:24:39]temp<--FF 03 02 01 01 51 C0 

[2018/5/18 13:24:40]send-->FF 03 00 04 00 01 D0 15 

[2018/5/18 13:24:40] h2s<--FF 03 02 00 00 91 90 

[2018/5/18 13:24:41]send-->FF 03 00 07 00 01 20 15 

[2018/5/18 13:24:42]  co<--FF 03 02 FF FF 90 20 

[2018/5/18 13:24:42]send-->FF 03 00 0A 00 01 B1 D6 

[2018/5/18 13:24:42]  o2<--FF 03 02 00 00 91 90 

[2018/5/18 13:24:43]send-->FF 03 00 0D 00 01 00 17 

[2018/5/18 13:24:43]temp<--FF 03 02 01 00 90 00 

[2018/5/18 13:24:44]send-->FF 03 00 04 00 01 D0 15 

[2018/5/18 13:24:44] h2s<--FF 03 02 00 00 91 90 

[2018/5/18 13:24:45]send-->FF 03 00 07 00 01 20 15 

[2018/5/18 13:24:46]  co<--FF 03 02 FF FF 90 20 

[2018/5/18 13:24:46]send-->FF 03 00 0A 00 01 B1 D6 

[2018/5/18 13:24:46]  o2<--FF 03 02 00 00 91 90 

[2018/5/18 13:24:47]send-->FF 03 00 0D 00 01 00 17 

[2018/5/18 13:24:47]temp<--FF 03 02 01 00 90 00 

[2018/5/18 13:24:48]send-->FF 03 00 04 00 01 D0 15 

[2018/5/18 13:24:48] h2s<--FF 03 02 00 00 91 90 

[2018/5/18 13:24:49]send-->FF 03 00 07 00 01 20 15 

[2018/5/18 13:24:50]  co<--FF 03 02 FF FF 90 20 

[2018/5/18 13:24:50]send-->FF 03 00 0A 00 01 B1 D6 

[2018/5/18 13:24:50]  o2<--FF 03 02 00 00 91 90 

[2018/5/18 13:24:51]send-->FF 03 00 0D 00 01 00 17 

[2018/5/18 13:24:51]temp<--FF 03 02 01 00 90 00 

[2018/5/18 13:24:52]send-->FF 03 00 04 00 01 D0 15 

[2018/5/18 13:24:52] h2s<--FF 03 02 00 00 91 90 

[2018/5/18 13:24:53]send-->FF 03 00 07 00 01 20 15 

[2018/5/18 13:24:54]  co<--FF 03 02 FF FF 90 20 

[2018/5/18 13:24:54]send-->FF 03 00 0A 00 01 B1 D6 

[2018/5/18 13:24:54]  o2<--FF 03 02 00 00 91 90 

[2018/5/18 13:24:55]send-->FF 03 00 0D 00 01 00 17 

[2018/5/18 13:24:55]temp<--FF 03 02 01 00 90 00 

[2018/5/18 13:24:56]send-->FF 03 00 04 00 01 D0 15 

[2018/5/18 13:24:56] h2s<--FF 03 02 00 00 91 90 

[2018/5/18 13:24:57]send-->FF 03 00 07 00 01 20 15 

[2018/5/18 13:24:58]  co<--FF 03 02 FF FF 90 20 

[2018/5/18 13:24:58]send-->FF 03 00 0A 00 01 B1 D6 

[2018/5/18 13:24:58]  o2<--FF 03 02 00 00 91 90 

[2018/5/18 13:24:59]send-->FF 03 00 0D 00 01 00 17 

[2018/5/18 13:24:59]temp<--FF 03 02 00 FF D1 D0 

[2018/5/18 13:25:00]send-->FF 03 00 04 00 01 D0 15 

[2018/5/18 13:25:01] h2s<--FF 03 02 00 00 91 90 

[2018/5/18 13:25:01]send-->FF 03 00 07 00 01 20 15 

[2018/5/18 13:25:02]  co<--FF 03 02 FF FF 90 20 

[2018/5/18 13:25:02]send-->FF 03 00 0A 00 01 B1 D6 

[2018/5/18 13:25:03]  o2<--FF 03 02 00 00 91 90 

[2018/5/18 13:25:04]send-->FF 03 00 0D 00 01 00 17 

[2018/5/18 13:25:04]temp<--FF 03 02 00 FF D1 D0 

[2018/5/18 13:25:05]send-->FF 03 00 04 00 01 D0 15 

[2018/5/18 13:25:05] h2s<--FF 03 02 00 00 91 90 

[2018/5/18 13:25:06]send-->FF 03 00 07 00 01 20 15 

[2018/5/18 13:25:06]  co<--FF 03 02 FF FF 90 20 

[2018/5/18 13:25:07]send-->FF 03 00 0A 00 01 B1 D6 

[2018/5/18 13:25:07]  o2<--FF 03 02 00 00 91 90 

[2018/5/18 13:25:08]send-->FF 03 00 0D 00 01 00 17 

[2018/5/18 13:25:08]temp<--FF 03 02 00 FE 10 10 

[2018/5/18 13:25:09]send-->FF 03 00 04 00 01 D0 15 

