send-->FF 03 00 01 00 01 C0 14 

send-->FF 03 00 04 00 01 D0 15 

send-->FF 03 00 07 00 01 20 15 

send-->FF 03 00 0A 00 01 B1 D6 

send-->FF 03 00 0D 00 01 00 17 

send-->FF 03 00 04 00 01 D0 15 

send-->FF 03 00 07 00 01 20 15 

send-->FF 03 00 0A 00 01 B1 D6 

send-->FF 03 00 0D 00 01 00 17 

send-->FF 03 00 04 00 01 D0 15 

send-->FF 03 00 07 00 01 20 15 

send-->FF 03 00 0A 00 01 B1 D6 

send-->FF 03 00 0D 00 01 00 17 

send-->FF 03 00 04 00 01 D0 15 

send-->FF 03 00 07 00 01 20 15 

send-->FF 03 00 0A 00 01 B1 D6 

send-->FF 03 00 0D 00 01 00 17 

send-->FF 03 00 04 00 01 D0 15 

send-->FF 03 00 07 00 01 20 15 

send-->FF 03 00 0A 00 01 B1 D6 

send-->FF 03 00 0D 00 01 00 17 

send-->FF 03 00 04 00 01 D0 15 

send-->FF 03 00 07 00 01 20 15 

send-->FF 03 00 0A 00 01 B1 D6 

send-->FF 03 00 0D 00 01 00 17 

send-->FF 03 00 04 00 01 D0 15 

send-->FF 03 00 07 00 01 20 15 

send-->FF 03 00 0A 00 01 B1 D6 

send-->FF 03 00 0D 00 01 00 17 

send-->FF 03 00 04 00 01 D0 15 

send-->FF 03 00 07 00 01 20 15 

send-->FF 03 00 0A 00 01 B1 D6 

send-->FF 03 00 0D 00 01 00 17 

send-->FF 03 00 04 00 01 D0 15 

send-->FF 03 00 07 00 01 20 15 

send-->FF 03 00 0A 00 01 B1 D6 

send-->FF 03 00 0D 00 01 00 17 

send-->FF 03 00 04 00 01 D0 15 

send-->FF 03 00 07 00 01 20 15 

send-->FF 03 00 0A 00 01 B1 D6 

send-->FF 03 00 0D 00 01 00 17 

send-->FF 03 00 04 00 01 D0 15 

send-->FF 03 00 07 00 01 20 15 

send-->FF 03 00 0A 00 01 B1 D6 

send-->FF 03 00 0D 00 01 00 17 

send-->FF 03 00 04 00 01 D0 15 

send-->FF 03 00 07 00 01 20 15 

send-->FF 03 00 0A 00 01 B1 D6 

send-->FF 03 00 0D 00 01 00 17 

send-->FF 03 00 04 00 01 D0 15 

send-->FF 03 00 07 00 01 20 15 

send-->FF 03 00 0A 00 01 B1 D6 

send-->FF 03 00 0D 00 01 00 17 

send-->FF 03 00 04 00 01 D0 15 

send-->FF 03 00 07 00 01 20 15 

send-->FF 03 00 0A 00 01 B1 D6 

send-->FF 03 00 0D 00 01 00 17 

send-->FF 03 00 04 00 01 D0 15 

send-->FF 03 00 07 00 01 20 15 

send-->FF 03 00 0A 00 01 B1 D6 

send-->FF 03 00 0D 00 01 00 17 

send-->FF 03 00 04 00 01 D0 15 

send-->FF 03 00 07 00 01 20 15 

send-->FF 03 00 0A 00 01 B1 D6 

send-->FF 03 00 0D 00 01 00 17 

send-->FF 03 00 04 00 01 D0 15 

send-->FF 03 00 07 00 01 20 15 

send-->FF 03 00 0A 00 01 B1 D6 

send-->FF 03 00 0D 00 01 00 17 

send-->FF 03 00 04 00 01 D0 15 

send-->FF 03 00 07 00 01 20 15 

send-->FF 03 00 0A 00 01 B1 D6 

send-->FF 03 00 0D 00 01 00 17 

send-->FF 03 00 04 00 01 D0 15 

send-->FF 03 00 07 00 01 20 15 

send-->FF 03 00 0A 00 01 B1 D6 

send-->FF 03 00 0D 00 01 00 17 

send-->FF 03 00 04 00 01 D0 15 

send-->FF 03 00 07 00 01 20 15 

send-->FF 03 00 0A 00 01 B1 D6 

send-->FF 03 00 0D 00 01 00 17 

send-->FF 03 00 04 00 01 D0 15 

send-->FF 03 00 07 00 01 20 15 

send-->FF 03 00 0A 00 01 B1 D6 

send-->FF 03 00 0D 00 01 00 17 

send-->FF 03 00 04 00 01 D0 15 

send-->FF 03 00 07 00 01 20 15 

send-->FF 03 00 0A 00 01 B1 D6 

send-->FF 03 00 0D 00 01 00 17 

send-->FF 03 00 04 00 01 D0 15 

send-->FF 03 00 07 00 01 20 15 

send-->FF 03 00 0A 00 01 B1 D6 

send-->FF 03 00 0D 00 01 00 17 

send-->FF 03 00 04 00 01 D0 15 

send-->FF 03 00 07 00 01 20 15 

send-->FF 03 00 0A 00 01 B1 D6 

send-->FF 03 00 0D 00 01 00 17 

send-->FF 03 00 04 00 01 D0 15 

send-->FF 03 00 07 00 01 20 15 

send-->FF 03 00 0A 00 01 B1 D6 

send-->FF 03 00 0D 00 01 00 17 

send-->FF 03 00 04 00 01 D0 15 

send-->FF 03 00 07 00 01 20 15 

send-->FF 03 00 0A 00 01 B1 D6 

send-->FF 03 00 0D 00 01 00 17 

send-->FF 03 00 04 00 01 D0 15 

send-->FF 03 00 07 00 01 20 15 

send-->FF 03 00 0A 00 01 B1 D6 

send-->FF 03 00 0D 00 01 00 17 

send-->FF 03 00 04 00 01 D0 15 

send-->FF 03 00 07 00 01 20 15 

send-->FF 03 00 0A 00 01 B1 D6 

send-->FF 03 00 0D 00 01 00 17 

send-->FF 03 00 04 00 01 D0 15 

send-->FF 03 00 07 00 01 20 15 

send-->FF 03 00 0A 00 01 B1 D6 

send-->FF 03 00 0D 00 01 00 17 

send-->FF 03 00 04 00 01 D0 15 

send-->FF 03 00 07 00 01 20 15 

send-->FF 03 00 0A 00 01 B1 D6 

send-->FF 03 00 0D 00 01 00 17 

send-->FF 03 00 04 00 01 D0 15 

send-->FF 03 00 07 00 01 20 15 

send-->FF 03 00 0A 00 01 B1 D6 

send-->FF 03 00 0D 00 01 00 17 

send-->FF 03 00 04 00 01 D0 15 

send-->FF 03 00 07 00 01 20 15 

send-->FF 03 00 0A 00 01 B1 D6 

send-->FF 03 00 0D 00 01 00 17 

send-->FF 03 00 04 00 01 D0 15 

send-->FF 03 00 07 00 01 20 15 

send-->FF 03 00 0A 00 01 B1 D6 

send-->FF 03 00 0D 00 01 00 17 

